T1620 000:067.508   SEGGER J-Link V6.86 Log File
T1620 000:067.715   DLL Compiled: Sep 24 2020 17:31:31
T1620 000:067.733   Logging started @ 2021-01-31 10:57
T1620 000:067.749 - 67.758ms
T1620 000:067.779 JLINK_SetWarnOutHandler(...)
T1620 000:067.798 - 0.026ms
T1620 000:067.816 JLINK_OpenEx(...)
T1620 000:069.985   Firmware: J-Link OB-STM32F072-CortexM compiled Jan  7 2019 14:09:37
T1620 000:070.304   Decompressing FW timestamp took 242 us
T1620 000:076.113   Hardware: V1.00
T1620 000:076.161   S/N: 4294967295
T1620 000:076.186   OEM: SEGGER
T1620 000:076.209   Feature(s): GDB, RDI, FlashBP, FlashDL, JFlash, RDDI
T1620 000:078.395   TELNET listener socket opened on port 19021
T1620 000:078.538   WEBSRV Starting webserver
T1620 000:078.815   WEBSRV Webserver running on local port 19080
T1620 000:078.847 - 11.041ms returns "O.K."
T1620 000:078.880 JLINK_GetEmuCaps()
T1620 000:078.896 - 0.024ms returns 0xB8EA5A33
T1620 000:078.924 JLINK_TIF_GetAvailable(...)
T1620 000:079.259 - 0.352ms
T1620 000:079.292 JLINK_SetErrorOutHandler(...)
T1620 000:079.309 - 0.025ms
T1620 000:079.347 JLINK_ExecCommand("ProjectFile = "C:\Users\86136\Desktop\create_idea\32mcu\digital_clock\USER\JLinkSettings.ini"", ...). 
T1620 000:094.366 - 15.035ms returns 0x00
T1620 000:094.425 JLINK_ExecCommand("Device = STM32F103ZE", ...). 
T1620 000:095.043   Device "STM32F103ZE" selected.
T1620 000:095.849 - 1.415ms returns 0x00
T1620 000:095.886 JLINK_GetHardwareVersion()
T1620 000:095.904 - 0.027ms returns 10000
T1620 000:095.934 JLINK_GetDLLVersion()
T1620 000:095.951 - 0.025ms returns 68600
T1620 000:095.970 JLINK_GetOEMString(...)
T1620 000:095.988 JLINK_GetFirmwareString(...)
T1620 000:096.004 - 0.024ms
T1620 000:096.048 JLINK_GetDLLVersion()
T1620 000:096.066 - 0.025ms returns 68600
T1620 000:096.084 JLINK_GetCompileDateTime()
T1620 000:096.099 - 0.023ms
T1620 000:096.126 JLINK_GetFirmwareString(...)
T1620 000:096.142 - 0.024ms
T1620 000:096.167 JLINK_GetHardwareVersion()
T1620 000:096.183 - 0.024ms returns 10000
T1620 000:096.209 JLINK_GetSN()
T1620 000:096.228 - 0.026ms returns -1
T1620 000:096.246 JLINK_GetOEMString(...)
T1620 000:096.278 JLINK_TIF_Select(JLINKARM_TIF_SWD)
T1620 000:097.329 - 1.069ms returns 0x00
T1620 000:097.363 JLINK_HasError()
T1620 000:097.400 JLINK_SetSpeed(5000)
T1620 000:097.552 - 0.171ms
T1620 000:097.587 JLINK_GetId()
T1620 000:099.146   Found SW-DP with ID 0x1BA01477
T1620 000:117.564   Found SW-DP with ID 0x1BA01477
T1620 000:120.093   Old FW that does not support reading DPIDR via DAP jobs
T1620 000:121.205   Unknown DP version. Assuming DPv0
T1620 000:121.281   Scanning AP map to find all available APs
T1620 000:122.238   AP[1]: Stopped AP scan as end of AP map has been reached
T1620 000:122.282   AP[0]: AHB-AP (IDR: 0x14770011)
T1620 000:122.314   Iterating through AP map to find AHB-AP to use
T1620 000:123.712   AP[0]: Core found
T1620 000:123.755   AP[0]: AHB-AP ROM base: 0xE00FF000
T1620 000:124.454   CPUID register: 0x411FC231. Implementer code: 0x41 (ARM)
T1620 000:124.497   Found Cortex-M3 r1p1, Little endian.
T1620 000:225.997   -- Max. mem block: 0x00002340
T1620 000:226.179   CPU_ReadMem(4 bytes @ 0xE000EDF0)
T1620 000:227.315   CPU_ReadMem(4 bytes @ 0xE0002000)
T1620 000:228.197   FPUnit: 6 code (BP) slots and 2 literal slots
T1620 000:228.304   CPU_ReadMem(4 bytes @ 0xE000EDFC)
T1620 000:229.050   CPU_WriteMem(4 bytes @ 0xE000EDFC)
T1620 000:229.947   CPU_ReadMem(4 bytes @ 0xE0001000)
T1620 000:230.893   CPU_WriteMem(4 bytes @ 0xE0001000)
T1620 000:231.940   CPU_ReadMem(4 bytes @ 0xE000ED88)
T1620 000:232.874   CPU_WriteMem(4 bytes @ 0xE000ED88)
T1620 000:233.785   CPU_ReadMem(4 bytes @ 0xE000ED88)
T1620 000:234.711   CPU_WriteMem(4 bytes @ 0xE000ED88)
T1620 000:235.746   CoreSight components:
T1620 000:235.912   ROMTbl[0] @ E00FF000
T1620 000:235.994   CPU_ReadMem(64 bytes @ 0xE00FF000)
T1620 000:237.450   CPU_ReadMem(32 bytes @ 0xE000EFE0)
T1620 000:238.728   ROMTbl[0][0]: E000E000, CID: B105E00D, PID: 001BB000 SCS
T1620 000:238.879   CPU_ReadMem(32 bytes @ 0xE0001FE0)
T1620 000:240.182   ROMTbl[0][1]: E0001000, CID: B105E00D, PID: 001BB002 DWT
T1620 000:240.316   CPU_ReadMem(32 bytes @ 0xE0002FE0)
T1620 000:241.527   ROMTbl[0][2]: E0002000, CID: B105E00D, PID: 000BB003 FPB
T1620 000:241.659   CPU_ReadMem(32 bytes @ 0xE0000FE0)
T1620 000:242.897   ROMTbl[0][3]: E0000000, CID: B105E00D, PID: 001BB001 ITM
T1620 000:243.027   CPU_ReadMem(32 bytes @ 0xE0040FE0)
T1620 000:244.148   ROMTbl[0][4]: E0040000, CID: B105900D, PID: 001BB923 TPIU-Lite
T1620 000:244.280   CPU_ReadMem(32 bytes @ 0xE0041FE0)
T1620 000:245.532   ROMTbl[0][5]: E0041000, CID: B105900D, PID: 101BB924 ETM-M3
T1620 000:246.367 - 148.834ms returns 0x1BA01477
T1620 000:246.480 JLINK_GetDLLVersion()
T1620 000:246.536 - 0.087ms returns 68600
T1620 000:246.607 JLINK_CORE_GetFound()
T1620 000:246.656 - 0.072ms returns 0x30000FF
T1620 000:246.719 JLINK_GetDebugInfo(0x100 = JLINKARM_ROM_TABLE_ADDR_INDEX)
T1620 000:246.772   Value=0xE00FF000
T1620 000:246.870 - 0.184ms returns 0
T1620 000:247.160 JLINK_GetDebugInfo(0x100 = JLINKARM_ROM_TABLE_ADDR_INDEX)
T1620 000:247.245   Value=0xE00FF000
T1620 000:247.315 - 0.179ms returns 0
T1620 000:247.373 JLINK_GetDebugInfo(0x101 = JLINKARM_DEBUG_INFO_ETM_ADDR_INDEX)
T1620 000:247.421   Value=0xE0041000
T1620 000:247.488 - 0.139ms returns 0
T1620 000:247.571 JLINK_ReadMemEx(0xE0041FD0, 0x20 Bytes, Flags = 0x02000004)
T1620 000:247.717   CPU_ReadMem(32 bytes @ 0xE0041FD0)
T1620 000:248.935   Data:  04 00 00 00 00 00 00 00 00 00 00 00 00 00 00 00 ...
T1620 000:249.056 - 1.509ms returns 32 (0x20)
T1620 000:249.127 JLINK_GetDebugInfo(0x102 = JLINKARM_DEBUG_INFO_MTB_ADDR_INDEX)
T1620 000:249.180   Value=0x00000000
T1620 000:249.247 - 0.143ms returns 0
T1620 000:249.303 JLINK_GetDebugInfo(0x103 = JLINKARM_DEBUG_INFO_TPIU_ADDR_INDEX)
T1620 000:249.351   Value=0xE0040000
T1620 000:249.417 - 0.137ms returns 0
T1620 000:249.471 JLINK_GetDebugInfo(0x104 = JLINKARM_DEBUG_INFO_ITM_ADDR_INDEX)
T1620 000:249.518   Value=0xE0000000
T1620 000:249.589 - 0.153ms returns 0
T1620 000:249.656 JLINK_GetDebugInfo(0x105 = JLINKARM_DEBUG_INFO_DWT_ADDR_INDEX)
T1620 000:249.703   Value=0xE0001000
T1620 000:249.769 - 0.145ms returns 0
T1620 000:249.839 JLINK_GetDebugInfo(0x106 = JLINKARM_DEBUG_INFO_FPB_ADDR_INDEX)
T1620 000:249.887   Value=0xE0002000
T1620 000:249.953 - 0.136ms returns 0
T1620 000:250.005 JLINK_GetDebugInfo(0x107 = JLINKARM_DEBUG_INFO_NVIC_ADDR_INDEX)
T1620 000:250.051   Value=0xE000E000
T1620 000:250.116 - 0.133ms returns 0
T1620 000:250.169 JLINK_GetDebugInfo(0x10C = JLINKARM_DEBUG_INFO_DBG_ADDR_INDEX)
T1620 000:250.215   Value=0xE000EDF0
T1620 000:250.281 - 0.135ms returns 0
T1620 000:250.334 JLINK_GetDebugInfo(0x01 = Unknown)
T1620 000:250.381   Value=0x00000000
T1620 000:250.447 - 0.135ms returns 0
T1620 000:250.501 JLINK_ReadMemU32(0xE000ED00, 0x1 Items)
T1620 000:250.573   CPU_ReadMem(4 bytes @ 0xE000ED00)
T1620 000:251.451   Data:  31 C2 1F 41
T1620 000:251.573   Debug reg: CPUID
T1620 000:251.644 - 1.167ms returns 1 (0x1)
T1620 000:251.713 JLINK_GetDebugInfo(0x10F = JLINKARM_DEBUG_INFO_HAS_CORTEX_M_SECURITY_EXT_INDEX)
T1620 000:251.765   Value=0x00000000
T1620 000:251.851 - 0.162ms returns 0
T1620 000:251.909 JLINK_HasError()
T1620 000:251.965 JLINK_SetResetType(JLINKARM_CM3_RESET_TYPE_NORMAL)
T1620 000:252.012 - 0.069ms returns JLINKARM_CM3_RESET_TYPE_NORMAL
T1620 000:252.065 JLINK_Reset()
T1620 000:252.198   CPU is running
T1620 000:252.277   CPU_WriteMem(4 bytes @ 0xE000EDF0)
T1620 000:253.099   CPU is running
T1620 000:253.203   CPU_WriteMem(4 bytes @ 0xE000EDFC)
T1620 000:254.058   Reset: Halt core after reset via DEMCR.VC_CORERESET.
T1620 000:255.164   Reset: Reset device via AIRCR.SYSRESETREQ.
T1620 000:255.269   CPU is running
T1620 000:255.343   CPU_WriteMem(4 bytes @ 0xE000ED0C)
T1620 000:308.765   CPU_ReadMem(4 bytes @ 0xE000EDF0)
T1620 000:309.595   CPU_ReadMem(4 bytes @ 0xE000EDF0)
T1620 000:310.425   CPU is running
T1620 000:310.531   CPU_WriteMem(4 bytes @ 0xE000EDF0)
T1620 000:311.386   CPU is running
T1620 000:311.494   CPU_WriteMem(4 bytes @ 0xE000EDFC)
T1620 000:317.695   CPU_ReadMem(4 bytes @ 0xE000EDF0)
T1620 000:323.734   CPU_WriteMem(4 bytes @ 0xE0002000)
T1620 000:324.572   CPU_ReadMem(4 bytes @ 0xE000EDFC)
T1620 000:325.370   CPU_ReadMem(4 bytes @ 0xE0001000)
T1620 000:326.157 - 74.144ms
T1620 000:326.269 JLINK_HasError()
T1620 000:326.507 JLINK_ReadReg(R15 (PC))
T1620 000:326.640 - 0.160ms returns 0x080026B4
T1620 000:326.704 JLINK_ReadReg(XPSR)
T1620 000:326.753 - 0.073ms returns 0x01000000
T1620 000:326.810 JLINK_Halt()
T1620 000:326.856 - 0.068ms returns 0x00
T1620 000:326.912 JLINK_ReadMemU32(0xE000EDF0, 0x1 Items)
T1620 000:326.974   CPU_ReadMem(4 bytes @ 0xE000EDF0)
T1620 000:327.770   Data:  03 00 03 00
T1620 000:327.874   Debug reg: DHCSR
T1620 000:327.947 - 1.060ms returns 1 (0x1)
T1620 000:328.041 JLINK_WriteU32_64(0xE000EDF0, 0xA05F0003)
T1620 000:328.105   Debug reg: DHCSR
T1620 000:328.248   CPU_WriteMem(4 bytes @ 0xE000EDF0)
T1620 000:329.048 - 1.059ms returns 0 (0x00000000)
T1620 000:329.146 JLINK_WriteU32_64(0xE000EDFC, 0x01000000)
T1620 000:329.201   Debug reg: DEMCR
T1620 000:329.295   CPU_WriteMem(4 bytes @ 0xE000EDFC)
T1620 000:330.097 - 1.002ms returns 0 (0x00000000)
T1620 000:330.304 JLINK_GetHWStatus(...)
T1620 000:330.747 - 0.494ms returns 0
T1620 000:330.922 JLINK_GetNumBPUnits(Type = 0xFFFFFF00)
T1620 000:330.980 - 0.082ms returns 0x06
T1620 000:331.038 JLINK_GetNumBPUnits(Type = 0xF0)
T1620 000:331.086 - 0.072ms returns 0x2000
T1620 000:331.144 JLINK_GetNumWPUnits()
T1620 000:331.191 - 0.071ms returns 4
T1620 000:331.305 JLINK_GetSpeed()
T1620 000:331.355 - 0.074ms returns 2000
T1620 000:331.442 JLINK_ReadMemU32(0xE000E004, 0x1 Items)
T1620 000:331.512   CPU_ReadMem(4 bytes @ 0xE000E004)
T1620 000:332.332   Data:  01 00 00 00
T1620 000:332.436 - 1.019ms returns 1 (0x1)
T1620 000:332.505 JLINK_ReadMemU32(0xE000E004, 0x1 Items)
T1620 000:332.592   CPU_ReadMem(4 bytes @ 0xE000E004)
T1620 000:333.382   Data:  01 00 00 00
T1620 000:333.486 - 1.006ms returns 1 (0x1)
T1620 000:333.557 JLINK_WriteMemEx(0xE0001000, 0x0000001C Bytes, Flags = 0x02000004)
T1620 000:333.626   Data:  01 00 00 00 00 00 00 00 00 00 00 00 00 00 00 00 ...
T1620 000:335.418   CPU_WriteMem(28 bytes @ 0xE0001000)
T1620 000:336.472 - 2.967ms returns 0x1C
T1620 000:336.583 JLINK_HasError()
T1620 000:336.651 JLINK_ReadReg(R15 (PC))
T1620 000:336.711 - 0.085ms returns 0x080026B4
T1620 000:336.769 JLINK_ReadReg(XPSR)
T1620 000:336.820 - 0.074ms returns 0x01000000
T1620 000:413.708 JLINK_ReadMemEx(0xE0001004, 0x4 Bytes, Flags = 0x02000000)
T1620 000:413.816   Data:  00 00 00 00
T1620 000:413.893   Debug reg: DWT_CYCCNT
T1620 000:413.962 - 0.278ms returns 4 (0x4)
T1620 000:523.191 JLINK_HasError()
T1620 000:523.282 JLINK_SetResetType(JLINKARM_CM3_RESET_TYPE_NORMAL)
T1620 000:523.322 - 0.058ms returns JLINKARM_CM3_RESET_TYPE_NORMAL
T1620 000:523.366 JLINK_Reset()
T1620 000:523.427   CPU_WriteMem(4 bytes @ 0xE000EDF0)
T1620 000:524.186   CPU_WriteMem(4 bytes @ 0xE000EDFC)
T1620 000:524.985   Reset: Halt core after reset via DEMCR.VC_CORERESET.
T1620 000:525.980   Reset: Reset device via AIRCR.SYSRESETREQ.
T1620 000:526.081   CPU_WriteMem(4 bytes @ 0xE000ED0C)
T1620 000:580.086   CPU_ReadMem(4 bytes @ 0xE000EDF0)
T1620 000:581.021   CPU_ReadMem(4 bytes @ 0xE000EDF0)
T1620 000:581.963   CPU_WriteMem(4 bytes @ 0xE000EDF0)
T1620 000:582.949   CPU_WriteMem(4 bytes @ 0xE000EDFC)
T1620 000:588.991   CPU_ReadMem(4 bytes @ 0xE000EDF0)
T1620 000:595.220   CPU_WriteMem(4 bytes @ 0xE0002000)
T1620 000:596.020   CPU_ReadMem(4 bytes @ 0xE000EDFC)
T1620 000:596.817   CPU_ReadMem(4 bytes @ 0xE0001000)
T1620 000:597.665 - 74.350ms
T1620 000:597.975 JLINK_HasError()
T1620 000:598.059 JLINK_ReadReg(R15 (PC))
T1620 000:598.122 - 0.088ms returns 0x080026B4
T1620 000:598.182 JLINK_ReadReg(XPSR)
T1620 000:598.233 - 0.076ms returns 0x01000000
T1620 000:598.405 JLINK_HasError()
T1620 000:598.466 JLINK_ReadReg(R0)
T1620 000:598.516 - 0.080ms returns 0x00000020
T1620 000:598.584 JLINK_ReadReg(R1)
T1620 000:598.632 - 0.071ms returns 0x40002804
T1620 000:598.687 JLINK_ReadReg(R2)
T1620 000:598.734 - 0.070ms returns 0x18000000
T1620 000:598.788 JLINK_ReadReg(R3)
T1620 000:598.835 - 0.086ms returns 0x40006C04
T1620 000:598.907 JLINK_ReadReg(R4)
T1620 000:598.955 - 0.071ms returns 0x00000000
T1620 000:599.010 JLINK_HasError()
T1620 000:599.064 JLINK_ReadMemU32(0xE0001004, 0x1 Items)
T1620 000:599.125   Data:  00 00 00 00
T1620 000:599.196   Debug reg: DWT_CYCCNT
T1620 000:599.263 - 0.221ms returns 1 (0x1)
T1620 001:033.223 JLINK_ReadMemEx(0x080026B4, 0x3C Bytes, Flags = 0x02000000)
T1620 001:033.274   CPU_ReadMem(128 bytes @ 0x08002680)
T1620 001:035.097    -- Updating C cache (128 bytes @ 0x08002680)
T1620 001:035.138    -- Read from C cache (60 bytes @ 0x080026B4)
T1620 001:035.168   Data:  09 48 80 47 09 48 00 47 FE E7 FE E7 FE E7 FE E7 ...
T1620 001:035.195 - 1.980ms returns 60 (0x3C)
T1620 001:035.220 JLINK_ReadMemEx(0x080026B4, 0x2 Bytes, Flags = 0x02000000)
T1620 001:035.242    -- Read from C cache (2 bytes @ 0x080026B4)
T1620 001:035.269   Data:  09 48
T1620 001:035.296 - 0.085ms returns 2 (0x2)
T1620 001:035.416 JLINK_ReadMemEx(0x080026B6, 0x2 Bytes, Flags = 0x02000000)
T1620 001:035.438    -- Read from C cache (2 bytes @ 0x080026B6)
T1620 001:035.464   Data:  80 47
T1620 001:035.491 - 0.083ms returns 2 (0x2)
T1620 002:543.250 JLINK_ReadMemEx(0x080026B6, 0x2 Bytes, Flags = 0x02000000)
T1620 002:543.289    -- Read from C cache (2 bytes @ 0x080026B6)
T1620 002:543.307   Data:  80 47
T1620 002:543.324 - 0.080ms returns 2 (0x2)
T1620 002:543.339 JLINK_ReadMemEx(0x080026B8, 0x3C Bytes, Flags = 0x02000000)
T1620 002:543.352    -- Read from C cache (60 bytes @ 0x080026B8)
T1620 002:543.369   Data:  09 48 00 47 FE E7 FE E7 FE E7 FE E7 FE E7 FE E7 ...
T1620 002:543.386 - 0.052ms returns 60 (0x3C)
T1620 002:543.400 JLINK_ReadMemEx(0x080026B8, 0x2 Bytes, Flags = 0x02000000)
T1620 002:543.412    -- Read from C cache (2 bytes @ 0x080026B8)
T1620 002:543.429   Data:  09 48
T1620 002:543.446 - 0.051ms returns 2 (0x2)
T3038 003:054.890 JLINK_ReadMemEx(0x080026B4, 0x2 Bytes, Flags = 0x02000000)
T3038 003:054.974    -- Read from C cache (2 bytes @ 0x080026B4)
T3038 003:055.001   Data:  09 48
T3038 003:055.023 - 0.140ms returns 2 (0x2)
T3038 003:055.067 JLINK_HasError()
T3038 003:055.132 JLINK_SetBPEx(Addr = 0x080001D4, Type = 0xFFFFFFF2)
T3038 003:055.178 - 0.076ms returns 0x00000001
T3038 003:055.239 JLINK_HasError()
T3038 003:055.256 JLINK_HasError()
T3038 003:055.300 JLINK_Go()
T3038 003:056.006   CPU_WriteMem(4 bytes @ 0xE0002000)
T3038 003:056.699   CPU_ReadMem(4 bytes @ 0xE0001000)
T3038 003:057.382   CPU_WriteMem(4 bytes @ 0xE0002008)
T3038 003:057.442   CPU_WriteMem(4 bytes @ 0xE000200C)
T3038 003:057.488   CPU_WriteMem(4 bytes @ 0xE0002010)
T3038 003:057.512   CPU_WriteMem(4 bytes @ 0xE0002014)
T3038 003:057.535   CPU_WriteMem(4 bytes @ 0xE0002018)
T3038 003:057.558   CPU_WriteMem(4 bytes @ 0xE000201C)
T3038 003:060.235   CPU_WriteMem(4 bytes @ 0xE0001004)
T3038 003:061.840 - 6.559ms
T3038 003:162.112 JLINK_HasError()
T3038 003:162.151 JLINK_IsHalted()
T3038 003:166.930 - 4.796ms returns TRUE
T3038 003:166.964 JLINK_HasError()
T3038 003:167.043 JLINK_Halt()
T3038 003:167.063 - 0.046ms returns 0x00
T3038 003:167.116 JLINK_IsHalted()
T3038 003:167.172 - 0.064ms returns TRUE
T3038 003:167.193 JLINK_IsHalted()
T3038 003:167.224 - 0.038ms returns TRUE
T3038 003:167.243 JLINK_IsHalted()
T3038 003:167.257 - 0.036ms returns TRUE
T3038 003:167.310 JLINK_HasError()
T3038 003:167.366 JLINK_ReadReg(R15 (PC))
T3038 003:167.405 - 0.053ms returns 0x080001D4
T3038 003:167.474 JLINK_ReadReg(XPSR)
T3038 003:167.509 - 0.060ms returns 0x21000000
T3038 003:167.572 JLINK_HasError()
T3038 003:168.203 JLINK_ClrBPEx(BPHandle = 0x00000001)
T3038 003:168.251 - 0.057ms returns 0x00
T3038 003:168.271 JLINK_HasError()
T3038 003:168.290 JLINK_HasError()
T3038 003:168.330 JLINK_ReadMemU32(0xE000ED30, 0x1 Items)
T3038 003:168.436   CPU_ReadMem(4 bytes @ 0xE000ED30)
T3038 003:168.982   Data:  02 00 00 00
T3038 003:169.021 - 0.700ms returns 1 (0x1)
T3038 003:169.062 JLINK_ReadMemU32(0xE0001028, 0x1 Items)
T3038 003:169.085   CPU_ReadMem(4 bytes @ 0xE0001028)
T3038 003:169.590   Data:  00 00 00 00
T3038 003:169.686   Debug reg: DWT_FUNC[0]
T3038 003:169.758 - 0.707ms returns 1 (0x1)
T3038 003:169.789 JLINK_ReadMemU32(0xE0001038, 0x1 Items)
T3038 003:169.848   CPU_ReadMem(4 bytes @ 0xE0001038)
T3038 003:170.411   Data:  00 02 00 00
T3038 003:170.445   Debug reg: DWT_FUNC[1]
T3038 003:170.501 - 0.720ms returns 1 (0x1)
T3038 003:170.542 JLINK_ReadMemU32(0xE0001048, 0x1 Items)
T3038 003:170.565   CPU_ReadMem(4 bytes @ 0xE0001048)
T3038 003:171.203   Data:  00 00 00 00
T3038 003:171.267   Debug reg: DWT_FUNC[2]
T3038 003:171.293 - 0.758ms returns 1 (0x1)
T3038 003:171.341 JLINK_ReadMemU32(0xE0001058, 0x1 Items)
T3038 003:171.368   CPU_ReadMem(4 bytes @ 0xE0001058)
T3038 003:171.946   Data:  00 00 00 00
T3038 003:171.979   Debug reg: DWT_FUNC[3]
T3038 003:172.051 - 0.718ms returns 1 (0x1)
T3038 003:172.412 JLINK_HasError()
T3038 003:172.435 JLINK_ReadReg(R0)
T3038 003:172.454 - 0.026ms returns 0x20000570
T3038 003:172.471 JLINK_ReadReg(R1)
T3038 003:172.487 - 0.025ms returns 0x20000770
T3038 003:172.507 JLINK_ReadReg(R2)
T3038 003:172.522 - 0.022ms returns 0x20000770
T3038 003:172.538 JLINK_ReadReg(R3)
T3038 003:172.553 - 0.022ms returns 0x20000770
T3038 003:172.570 JLINK_ReadReg(R4)
T3038 003:172.585 - 0.022ms returns 0x00000000
T3038 003:172.601 JLINK_ReadReg(R5)
T3038 003:172.616 - 0.022ms returns 0x20000510
T3038 003:172.633 JLINK_ReadReg(R6)
T3038 003:172.649 - 0.022ms returns 0x00000000
T3038 003:172.666 JLINK_ReadReg(R7)
T3038 003:172.681 - 0.021ms returns 0x00000000
T3038 003:172.697 JLINK_ReadReg(R8)
T3038 003:172.727 - 0.038ms returns 0x00000000
T3038 003:172.745 JLINK_ReadReg(R9)
T3038 003:172.760 - 0.022ms returns 0x20000160
T3038 003:172.777 JLINK_ReadReg(R10)
T3038 003:172.814 - 0.044ms returns 0x08005480
T3038 003:172.831 JLINK_ReadReg(R11)
T3038 003:172.846 - 0.022ms returns 0x00000000
T3038 003:172.864 JLINK_ReadReg(R12)
T3038 003:172.897 - 0.040ms returns 0x20000550
T3038 003:172.914 JLINK_ReadReg(R13 (SP))
T3038 003:172.928 - 0.021ms returns 0x20000B70
T3038 003:172.945 JLINK_ReadReg(R14)
T3038 003:172.960 - 0.022ms returns 0x080001C5
T3038 003:172.976 JLINK_ReadReg(R15 (PC))
T3038 003:173.019 - 0.051ms returns 0x080001D4
T3038 003:173.038 JLINK_ReadReg(XPSR)
T3038 003:173.054 - 0.038ms returns 0x21000000
T3038 003:173.086 JLINK_ReadReg(MSP)
T3038 003:173.100 - 0.021ms returns 0x20000B70
T3038 003:173.116 JLINK_ReadReg(PSP)
T3038 003:173.130 - 0.020ms returns 0x20001000
T3038 003:173.146 JLINK_ReadReg(CFBP)
T3038 003:173.160 - 0.021ms returns 0x00000000
T1620 003:180.602 JLINK_HasError()
T1620 003:180.630 JLINK_ReadMemU32(0xE0001004, 0x1 Items)
T1620 003:180.650   CPU_ReadMem(4 bytes @ 0xE0001004)
T1620 003:181.204   Data:  23 19 00 00
T1620 003:181.231   Debug reg: DWT_CYCCNT
T1620 003:181.249 - 0.625ms returns 1 (0x1)
T1620 003:184.781 JLINK_ReadMemEx(0x080001D4, 0x3C Bytes, Flags = 0x02000000)
T1620 003:184.810   CPU_ReadMem(128 bytes @ 0x080001C0)
T1620 003:186.611    -- Updating C cache (128 bytes @ 0x080001C0)
T1620 003:186.656    -- Read from C cache (60 bytes @ 0x080001D4)
T1620 003:186.675   Data:  02 F0 64 F9 00 F0 5A F9 4F F4 A0 60 02 F0 88 FA ...
T1620 003:186.717 - 1.943ms returns 60 (0x3C)
T1620 003:186.737 JLINK_ReadMemEx(0x080001D4, 0x2 Bytes, Flags = 0x02000000)
T1620 003:186.754    -- Read from C cache (2 bytes @ 0x080001D4)
T1620 003:186.779   Data:  02 F0
T1620 003:186.800 - 0.069ms returns 2 (0x2)
T1620 003:186.818 JLINK_ReadMemEx(0x080001D6, 0x2 Bytes, Flags = 0x02000000)
T1620 003:186.856    -- Read from C cache (2 bytes @ 0x080001D6)
T1620 003:186.922   Data:  64 F9
T1620 003:186.952 - 0.141ms returns 2 (0x2)
T1620 003:187.031 JLINK_ReadMemEx(0x080001D8, 0x3C Bytes, Flags = 0x02000000)
T1620 003:187.051    -- Read from C cache (60 bytes @ 0x080001D8)
T1620 003:187.099   Data:  00 F0 5A F9 4F F4 A0 60 02 F0 88 FA 00 F0 30 F9 ...
T1620 003:187.137 - 0.128ms returns 60 (0x3C)
T1620 003:187.168 JLINK_ReadMemEx(0x080001D8, 0x2 Bytes, Flags = 0x02000000)
T1620 003:187.182    -- Read from C cache (2 bytes @ 0x080001D8)
T1620 003:187.199   Data:  00 F0
T1620 003:187.217 - 0.055ms returns 2 (0x2)
T1620 003:187.231 JLINK_ReadMemEx(0x080001DA, 0x2 Bytes, Flags = 0x02000000)
T1620 003:187.244    -- Read from C cache (2 bytes @ 0x080001DA)
T1620 003:187.262   Data:  5A F9
T1620 003:187.279 - 0.054ms returns 2 (0x2)
T3198 009:928.265 Looking for J-Link GUI Server exe at: E:\software\mkd5\ARM\Segger\JLinkGUIServer.exe
T3198 009:929.197 Looking for J-Link GUI Server exe at: \JLinkGUIServer.exe
T3198 010:230.708 Failed to connect to J-Link GUI Server.
T3038 034:854.383 JLINK_ReadMemEx(0x080001D4, 0x2 Bytes, Flags = 0x02000000)
T3038 034:854.447    -- Read from C cache (2 bytes @ 0x080001D4)
T3038 034:854.470   Data:  02 F0
T3038 034:854.489 - 0.112ms returns 2 (0x2)
T3038 034:854.506 JLINK_HasError()
T3038 034:854.523 JLINK_SetBPEx(Addr = 0x080001D8, Type = 0xFFFFFFF2)
T3038 034:854.541 - 0.039ms returns 0x00000002
T3038 034:854.588 JLINK_HasError()
T3038 034:854.603 JLINK_HasError()
T3038 034:854.618 JLINK_Go()
T3038 034:855.201   CPU_WriteMem(4 bytes @ 0xE0002000)
T3038 034:855.888   CPU_ReadMem(4 bytes @ 0xE0001000)
T3038 034:856.497   CPU_WriteMem(4 bytes @ 0xE0002008)
T3038 034:857.913 - 3.309ms
T3038 034:958.302 JLINK_HasError()
T3038 034:958.415 JLINK_IsHalted()
T3038 034:963.488 - 5.144ms returns TRUE
T3038 034:963.605 JLINK_HasError()
T3038 034:963.665 JLINK_Halt()
T3038 034:963.715 - 0.073ms returns 0x00
T3038 034:963.771 JLINK_IsHalted()
T3038 034:963.818 - 0.071ms returns TRUE
T3038 034:963.874 JLINK_IsHalted()
T3038 034:963.921 - 0.071ms returns TRUE
T3038 034:963.977 JLINK_IsHalted()
T3038 034:964.024 - 0.070ms returns TRUE
T3038 034:964.085 JLINK_HasError()
T3038 034:964.153 JLINK_ReadReg(R15 (PC))
T3038 034:964.212 - 0.089ms returns 0x080001D8
T3038 034:964.275 JLINK_ReadReg(XPSR)
T3038 034:964.326 - 0.074ms returns 0xA1000000
T3038 034:964.392 JLINK_HasError()
T3038 034:964.446 JLINK_ClrBPEx(BPHandle = 0x00000002)
T3038 034:964.494 - 0.071ms returns 0x00
T3038 034:964.548 JLINK_HasError()
T3038 034:964.601 JLINK_HasError()
T3038 034:964.654 JLINK_ReadMemU32(0xE000ED30, 0x1 Items)
T3038 034:964.717   CPU_ReadMem(4 bytes @ 0xE000ED30)
T3038 034:965.505   Data:  02 00 00 00
T3038 034:965.604 - 0.975ms returns 1 (0x1)
T3038 034:965.671 JLINK_ReadMemU32(0xE0001028, 0x1 Items)
T3038 034:965.741   CPU_ReadMem(4 bytes @ 0xE0001028)
T3038 034:966.530   Data:  00 00 00 00
T3038 034:966.631   Debug reg: DWT_FUNC[0]
T3038 034:966.701 - 1.054ms returns 1 (0x1)
T3038 034:966.767 JLINK_ReadMemU32(0xE0001038, 0x1 Items)
T3038 034:966.835   CPU_ReadMem(4 bytes @ 0xE0001038)
T3038 034:967.659   Data:  00 02 00 00
T3038 034:967.781   Debug reg: DWT_FUNC[1]
T3038 034:967.851 - 1.108ms returns 1 (0x1)
T3038 034:967.920 JLINK_ReadMemU32(0xE0001048, 0x1 Items)
T3038 034:967.997   CPU_ReadMem(4 bytes @ 0xE0001048)
T3038 034:968.869   Data:  00 00 00 00
T3038 034:968.991   Debug reg: DWT_FUNC[2]
T3038 034:969.061 - 1.164ms returns 1 (0x1)
T3038 034:969.130 JLINK_ReadMemU32(0xE0001058, 0x1 Items)
T3038 034:969.216   CPU_ReadMem(4 bytes @ 0xE0001058)
T3038 034:970.035   Data:  00 00 00 00
T3038 034:970.157   Debug reg: DWT_FUNC[3]
T3038 034:970.235 - 1.130ms returns 1 (0x1)
T3038 034:970.825 JLINK_HasError()
T3038 034:970.926 JLINK_ReadReg(R0)
T3038 034:970.991 - 0.091ms returns 0x00002328
T3038 034:971.051 JLINK_ReadReg(R1)
T3038 034:971.102 - 0.075ms returns 0x2000001E
T3038 034:971.159 JLINK_ReadReg(R2)
T3038 034:971.215 - 0.079ms returns 0xE000E000
T3038 034:971.271 JLINK_ReadReg(R3)
T3038 034:971.319 - 0.072ms returns 0x20000770
T3038 034:971.376 JLINK_ReadReg(R4)
T3038 034:971.424 - 0.072ms returns 0x00000000
T3038 034:971.480 JLINK_ReadReg(R5)
T3038 034:971.528 - 0.080ms returns 0x20000510
T3038 034:971.598 JLINK_ReadReg(R6)
T3038 034:971.647 - 0.073ms returns 0x00000000
T3038 034:971.703 JLINK_ReadReg(R7)
T3038 034:971.751 - 0.072ms returns 0x00000000
T3038 034:971.806 JLINK_ReadReg(R8)
T3038 034:971.854 - 0.071ms returns 0x00000000
T3038 034:971.910 JLINK_ReadReg(R9)
T3038 034:971.958 - 0.072ms returns 0x20000160
T3038 034:972.014 JLINK_ReadReg(R10)
T3038 034:972.062 - 0.071ms returns 0x08005480
T3038 034:972.118 JLINK_ReadReg(R11)
T3038 034:972.172 - 0.078ms returns 0x00000000
T3038 034:972.228 JLINK_ReadReg(R12)
T3038 034:972.275 - 0.070ms returns 0x20000550
T3038 034:972.329 JLINK_ReadReg(R13 (SP))
T3038 034:972.377 - 0.071ms returns 0x20000B70
T3038 034:972.431 JLINK_ReadReg(R14)
T3038 034:972.477 - 0.069ms returns 0x080024AB
T3038 034:972.531 JLINK_ReadReg(R15 (PC))
T3038 034:972.578 - 0.070ms returns 0x080001D8
T3038 034:972.632 JLINK_ReadReg(XPSR)
T3038 034:972.679 - 0.070ms returns 0xA1000000
T3038 034:972.733 JLINK_ReadReg(MSP)
T3038 034:972.780 - 0.069ms returns 0x20000B70
T3038 034:972.834 JLINK_ReadReg(PSP)
T3038 034:972.880 - 0.069ms returns 0x20001000
T3038 034:972.934 JLINK_ReadReg(CFBP)
T3038 034:972.980 - 0.069ms returns 0x00000000
T1620 034:974.941 JLINK_HasError()
T1620 034:975.033 JLINK_ReadMemU32(0xE0001004, 0x1 Items)
T1620 034:975.105   CPU_ReadMem(4 bytes @ 0xE0001004)
T1620 034:975.987   Data:  76 19 00 00
T1620 034:976.109   Debug reg: DWT_CYCCNT
T1620 034:976.179 - 1.176ms returns 1 (0x1)
T1620 034:994.431 JLINK_ReadMemEx(0x080001D4, 0x3C Bytes, Flags = 0x02000000)
T1620 034:994.545   CPU_ReadMem(128 bytes @ 0x080001C0)
T1620 034:996.598    -- Updating C cache (128 bytes @ 0x080001C0)
T1620 034:996.722    -- Read from C cache (60 bytes @ 0x080001D4)
T1620 034:996.800   Data:  02 F0 64 F9 00 F0 5A F9 4F F4 A0 60 02 F0 88 FA ...
T1620 034:996.870 - 2.463ms returns 60 (0x3C)
T1620 034:996.939 JLINK_ReadMemEx(0x080001D4, 0x2 Bytes, Flags = 0x02000000)
T1620 034:996.996    -- Read from C cache (2 bytes @ 0x080001D4)
T1620 034:997.066   Data:  02 F0
T1620 034:997.155 - 0.242ms returns 2 (0x2)
T1620 034:997.219 JLINK_ReadMemEx(0x080001D6, 0x2 Bytes, Flags = 0x02000000)
T1620 034:997.271    -- Read from C cache (2 bytes @ 0x080001D6)
T1620 034:997.339   Data:  64 F9
T1620 034:997.409 - 0.214ms returns 2 (0x2)
T1620 034:997.521 JLINK_ReadMemEx(0x080001D8, 0x3C Bytes, Flags = 0x02000000)
T1620 034:997.576    -- Read from C cache (60 bytes @ 0x080001D8)
T1620 034:997.645   Data:  00 F0 5A F9 4F F4 A0 60 02 F0 88 FA 00 F0 30 F9 ...
T1620 034:997.711 - 0.212ms returns 60 (0x3C)
T1620 034:997.765 JLINK_ReadMemEx(0x080001D8, 0x2 Bytes, Flags = 0x02000000)
T1620 034:997.814    -- Read from C cache (2 bytes @ 0x080001D8)
T1620 034:997.880   Data:  00 F0
T1620 034:997.947 - 0.204ms returns 2 (0x2)
T1620 034:998.000 JLINK_ReadMemEx(0x080001DA, 0x2 Bytes, Flags = 0x02000000)
T1620 034:998.049    -- Read from C cache (2 bytes @ 0x080001DA)
T1620 034:998.140   Data:  5A F9
T1620 034:998.208 - 0.230ms returns 2 (0x2)
T3038 037:445.339 JLINK_ReadMemEx(0x080001D8, 0x2 Bytes, Flags = 0x02000000)
T3038 037:445.375    -- Read from C cache (2 bytes @ 0x080001D8)
T3038 037:445.398   Data:  00 F0
T3038 037:445.421 - 0.089ms returns 2 (0x2)
T3038 037:445.440 JLINK_HasError()
T3038 037:445.459 JLINK_SetBPEx(Addr = 0x080001DC, Type = 0xFFFFFFF2)
T3038 037:445.481 - 0.029ms returns 0x00000003
T3038 037:445.499 JLINK_HasError()
T3038 037:445.516 JLINK_HasError()
T3038 037:445.533 JLINK_Go()
T3038 037:446.239   CPU_WriteMem(4 bytes @ 0xE0002000)
T3038 037:446.849   CPU_ReadMem(4 bytes @ 0xE0001000)
T3038 037:447.414   CPU_WriteMem(4 bytes @ 0xE0002008)
T3038 037:448.765 - 3.247ms
T3038 037:549.565 JLINK_HasError()
T3038 037:549.628 JLINK_IsHalted()
T3038 037:554.387 - 4.788ms returns TRUE
T3038 037:554.432 JLINK_HasError()
T3038 037:554.449 JLINK_Halt()
T3038 037:554.463 - 0.020ms returns 0x00
T3038 037:554.479 JLINK_IsHalted()
T3038 037:554.493 - 0.020ms returns TRUE
T3038 037:554.509 JLINK_IsHalted()
T3038 037:554.525 - 0.025ms returns TRUE
T3038 037:554.543 JLINK_IsHalted()
T3038 037:554.556 - 0.020ms returns TRUE
T3038 037:554.573 JLINK_HasError()
T3038 037:554.589 JLINK_ReadReg(R15 (PC))
T3038 037:554.606 - 0.024ms returns 0x080001DC
T3038 037:554.623 JLINK_ReadReg(XPSR)
T3038 037:554.637 - 0.021ms returns 0x81000000
T3038 037:554.658 JLINK_HasError()
T3038 037:554.674 JLINK_ClrBPEx(BPHandle = 0x00000003)
T3038 037:554.688 - 0.021ms returns 0x00
T3038 037:554.705 JLINK_HasError()
T3038 037:554.720 JLINK_HasError()
T3038 037:554.736 JLINK_ReadMemU32(0xE000ED30, 0x1 Items)
T3038 037:554.756   CPU_ReadMem(4 bytes @ 0xE000ED30)
T3038 037:555.491   Data:  02 00 00 00
T3038 037:555.537 - 0.808ms returns 1 (0x1)
T3038 037:555.560 JLINK_ReadMemU32(0xE0001028, 0x1 Items)
T3038 037:555.586   CPU_ReadMem(4 bytes @ 0xE0001028)
T3038 037:556.201   Data:  00 00 00 00
T3038 037:556.239   Debug reg: DWT_FUNC[0]
T3038 037:556.259 - 0.706ms returns 1 (0x1)
T3038 037:556.280 JLINK_ReadMemU32(0xE0001038, 0x1 Items)
T3038 037:556.303   CPU_ReadMem(4 bytes @ 0xE0001038)
T3038 037:557.151   Data:  00 02 00 00
T3038 037:557.213   Debug reg: DWT_FUNC[1]
T3038 037:557.232 - 0.959ms returns 1 (0x1)
T3038 037:557.254 JLINK_ReadMemU32(0xE0001048, 0x1 Items)
T3038 037:557.280   CPU_ReadMem(4 bytes @ 0xE0001048)
T3038 037:558.041   Data:  00 00 00 00
T3038 037:558.089   Debug reg: DWT_FUNC[2]
T3038 037:558.109 - 0.861ms returns 1 (0x1)
T3038 037:558.131 JLINK_ReadMemU32(0xE0001058, 0x1 Items)
T3038 037:558.156   CPU_ReadMem(4 bytes @ 0xE0001058)
T3038 037:558.932   Data:  00 00 00 00
T3038 037:558.981   Debug reg: DWT_FUNC[3]
T3038 037:559.002 - 0.877ms returns 1 (0x1)
T3038 037:559.165 JLINK_HasError()
T3038 037:559.192 JLINK_ReadReg(R0)
T3038 037:559.213 - 0.027ms returns 0x00000008
T3038 037:559.229 JLINK_ReadReg(R1)
T3038 037:559.244 - 0.021ms returns 0x20000B68
T3038 037:559.261 JLINK_ReadReg(R2)
T3038 037:559.275 - 0.021ms returns 0x40010800
T3038 037:559.291 JLINK_ReadReg(R3)
T3038 037:559.305 - 0.020ms returns 0x28000001
T3038 037:559.321 JLINK_ReadReg(R4)
T3038 037:559.334 - 0.020ms returns 0x00000000
T3038 037:559.350 JLINK_ReadReg(R5)
T3038 037:559.364 - 0.020ms returns 0x20000510
T3038 037:559.380 JLINK_ReadReg(R6)
T3038 037:559.394 - 0.021ms returns 0x00000000
T3038 037:559.410 JLINK_ReadReg(R7)
T3038 037:559.424 - 0.020ms returns 0x00000000
T3038 037:559.440 JLINK_ReadReg(R8)
T3038 037:559.454 - 0.021ms returns 0x00000000
T3038 037:559.470 JLINK_ReadReg(R9)
T3038 037:559.485 - 0.021ms returns 0x20000160
T3038 037:559.501 JLINK_ReadReg(R10)
T3038 037:559.515 - 0.020ms returns 0x08005480
T3038 037:559.530 JLINK_ReadReg(R11)
T3038 037:559.544 - 0.020ms returns 0x00000000
T3038 037:559.560 JLINK_ReadReg(R12)
T3038 037:559.574 - 0.020ms returns 0x00000001
T3038 037:559.590 JLINK_ReadReg(R13 (SP))
T3038 037:559.604 - 0.021ms returns 0x20000B70
T3038 037:559.620 JLINK_ReadReg(R14)
T3038 037:559.633 - 0.020ms returns 0x080004C3
T3038 037:559.649 JLINK_ReadReg(R15 (PC))
T3038 037:559.663 - 0.020ms returns 0x080001DC
T3038 037:559.679 JLINK_ReadReg(XPSR)
T3038 037:559.693 - 0.020ms returns 0x81000000
T3038 037:559.709 JLINK_ReadReg(MSP)
T3038 037:559.723 - 0.020ms returns 0x20000B70
T3038 037:559.739 JLINK_ReadReg(PSP)
T3038 037:559.753 - 0.020ms returns 0x20001000
T3038 037:559.769 JLINK_ReadReg(CFBP)
T3038 037:559.783 - 0.020ms returns 0x00000000
T1620 037:560.158 JLINK_HasError()
T1620 037:560.185 JLINK_ReadMemU32(0xE0001004, 0x1 Items)
T1620 037:560.207   CPU_ReadMem(4 bytes @ 0xE0001004)
T1620 037:560.981   Data:  D9 1B 00 00
T1620 037:561.027   Debug reg: DWT_CYCCNT
T1620 037:561.048 - 0.870ms returns 1 (0x1)
T1620 037:566.544 JLINK_ReadMemEx(0x080001DC, 0x3C Bytes, Flags = 0x02000000)
T1620 037:566.596   CPU_ReadMem(128 bytes @ 0x080001C0)
T1620 037:568.422    -- Updating C cache (128 bytes @ 0x080001C0)
T1620 037:568.467    -- Read from C cache (60 bytes @ 0x080001DC)
T1620 037:568.490   Data:  4F F4 A0 60 02 F0 88 FA 00 F0 30 F9 00 F0 F6 FB ...
T1620 037:568.558 - 2.020ms returns 60 (0x3C)
T1620 037:568.580 JLINK_ReadMemEx(0x080001DC, 0x2 Bytes, Flags = 0x02000000)
T1620 037:568.597    -- Read from C cache (2 bytes @ 0x080001DC)
T1620 037:568.617   Data:  4F F4
T1620 037:568.638 - 0.065ms returns 2 (0x2)
T1620 037:568.657 JLINK_ReadMemEx(0x080001DE, 0x2 Bytes, Flags = 0x02000000)
T1620 037:568.672    -- Read from C cache (2 bytes @ 0x080001DE)
T1620 037:568.691   Data:  A0 60
T1620 037:568.711 - 0.061ms returns 2 (0x2)
T1620 037:568.741 JLINK_ReadMemEx(0x080001E0, 0x3C Bytes, Flags = 0x02000000)
T1620 037:568.758    -- Read from C cache (60 bytes @ 0x080001E0)
T1620 037:568.778   Data:  02 F0 88 FA 00 F0 30 F9 00 F0 F6 FB 00 F0 D4 F9 ...
T1620 037:568.797 - 0.062ms returns 60 (0x3C)
T1620 037:568.813 JLINK_ReadMemEx(0x080001E0, 0x2 Bytes, Flags = 0x02000000)
T1620 037:568.828    -- Read from C cache (2 bytes @ 0x080001E0)
T1620 037:568.848   Data:  02 F0
T1620 037:568.867 - 0.060ms returns 2 (0x2)
T1620 037:568.883 JLINK_ReadMemEx(0x080001E2, 0x2 Bytes, Flags = 0x02000000)
T1620 037:568.898    -- Read from C cache (2 bytes @ 0x080001E2)
T1620 037:568.918   Data:  88 FA
T1620 037:568.940 - 0.064ms returns 2 (0x2)
T1620 037:568.969 JLINK_ReadMemEx(0x080001E4, 0x3C Bytes, Flags = 0x02000000)
T1620 037:568.985    -- Read from C cache (60 bytes @ 0x080001E4)
T1620 037:569.005   Data:  00 F0 30 F9 00 F0 F6 FB 00 F0 D4 F9 4F F4 E1 30 ...
T1620 037:569.024 - 0.061ms returns 60 (0x3C)
T1620 037:569.040 JLINK_ReadMemEx(0x080001E4, 0x2 Bytes, Flags = 0x02000000)
T1620 037:569.054    -- Read from C cache (2 bytes @ 0x080001E4)
T1620 037:569.073   Data:  00 F0
T1620 037:569.093 - 0.059ms returns 2 (0x2)
T1620 037:569.108 JLINK_ReadMemEx(0x080001E6, 0x2 Bytes, Flags = 0x02000000)
T1620 037:569.122    -- Read from C cache (2 bytes @ 0x080001E6)
T1620 037:569.141   Data:  30 F9
T1620 037:569.160 - 0.058ms returns 2 (0x2)
T3038 038:665.561 JLINK_ReadMemEx(0x080001DC, 0x2 Bytes, Flags = 0x02000000)
T3038 038:665.606    -- Read from C cache (2 bytes @ 0x080001DC)
T3038 038:665.634   Data:  4F F4
T3038 038:665.697 - 0.143ms returns 2 (0x2)
T3038 038:665.731 JLINK_HasError()
T3038 038:665.749 JLINK_Step()
T3038 038:666.302    -- Read from C cache (2 bytes @ 0x080001DC)
T3038 038:666.333   CPU_ReadMem(4 bytes @ 0xE000ED18)
T3038 038:666.884   CPU_WriteMem(4 bytes @ 0xE000ED18)
T3038 038:667.491   CPU_ReadMem(4 bytes @ 0xE000ED18)
T3038 038:668.007   CPU_WriteMem(4 bytes @ 0xE000ED18)
T3038 038:668.582    -- Read from C cache (2 bytes @ 0x080001DE)
T3038 038:668.614   -- Simulated
T3038 038:668.633 - 2.891ms returns 0
T3038 038:668.654 JLINK_HasError()
T3038 038:668.697 JLINK_ReadReg(R15 (PC))
T3038 038:668.716 - 0.041ms returns 0x080001E0
T3038 038:668.762 JLINK_ReadReg(XPSR)
T3038 038:668.775 - 0.020ms returns 0x81000000
T3038 038:668.798 JLINK_ReadMemEx(0x080001DE, 0x2 Bytes, Flags = 0x02000000)
T3038 038:668.812    -- Read from C cache (2 bytes @ 0x080001DE)
T3038 038:668.831   Data:  A0 60
T3038 038:668.849 - 0.057ms returns 2 (0x2)
T3038 038:668.865 JLINK_ReadMemEx(0x080001E0, 0x3C Bytes, Flags = 0x02000000)
T3038 038:668.878    -- Read from C cache (60 bytes @ 0x080001E0)
T3038 038:668.897   Data:  02 F0 88 FA 00 F0 30 F9 00 F0 F6 FB 00 F0 D4 F9 ...
T3038 038:668.916 - 0.057ms returns 60 (0x3C)
T3038 038:668.931 JLINK_ReadMemEx(0x080001E0, 0x2 Bytes, Flags = 0x02000000)
T3038 038:668.944    -- Read from C cache (2 bytes @ 0x080001E0)
T3038 038:668.962   Data:  02 F0
T3038 038:668.980 - 0.055ms returns 2 (0x2)
T3038 038:668.996 JLINK_HasError()
T3038 038:669.012 JLINK_SetBPEx(Addr = 0x080001E4, Type = 0xFFFFFFF2)
T3038 038:669.027 - 0.021ms returns 0x00000004
T3038 038:669.042 JLINK_HasError()
T3038 038:669.056 JLINK_HasError()
T3038 038:669.071 JLINK_Go()
T3038 038:669.087   CPU_WriteMem(4 bytes @ 0xE0002000)
T3038 038:669.724   CPU_ReadMem(4 bytes @ 0xE0001000)
T3038 038:670.324   CPU_WriteMem(4 bytes @ 0xE0002008)
T3038 038:670.937   CPU_WriteMem(4 bytes @ 0xE0001004)
T3038 038:673.260 - 4.205ms
T3038 038:774.321 JLINK_HasError()
T3038 038:774.440 JLINK_IsHalted()
T3038 038:779.639 - 5.270ms returns TRUE
T3038 038:779.755 JLINK_HasError()
T3038 038:779.820 JLINK_Halt()
T3038 038:779.878 - 0.083ms returns 0x00
T3038 038:779.935 JLINK_IsHalted()
T3038 038:779.984 - 0.072ms returns TRUE
T3038 038:780.047 JLINK_IsHalted()
T3038 038:780.094 - 0.070ms returns TRUE
T3038 038:780.148 JLINK_IsHalted()
T3038 038:780.194 - 0.069ms returns TRUE
T3038 038:780.250 JLINK_HasError()
T3038 038:780.305 JLINK_ReadReg(R15 (PC))
T3038 038:780.362 - 0.080ms returns 0x080001E4
T3038 038:780.419 JLINK_ReadReg(XPSR)
T3038 038:780.467 - 0.072ms returns 0x01000000
T3038 038:780.533 JLINK_HasError()
T3038 038:780.590 JLINK_ClrBPEx(BPHandle = 0x00000004)
T3038 038:780.644 - 0.078ms returns 0x00
T3038 038:780.700 JLINK_HasError()
T3038 038:780.753 JLINK_HasError()
T3038 038:780.806 JLINK_ReadMemU32(0xE000ED30, 0x1 Items)
T3038 038:780.870   CPU_ReadMem(4 bytes @ 0xE000ED30)
T3038 038:781.733   Data:  02 00 00 00
T3038 038:781.858 - 1.077ms returns 1 (0x1)
T3038 038:781.929 JLINK_ReadMemU32(0xE0001028, 0x1 Items)
T3038 038:782.007   CPU_ReadMem(4 bytes @ 0xE0001028)
T3038 038:782.839   Data:  00 00 00 00
T3038 038:782.965   Debug reg: DWT_FUNC[0]
T3038 038:783.056 - 1.153ms returns 1 (0x1)
T3038 038:783.130 JLINK_ReadMemU32(0xE0001038, 0x1 Items)
T3038 038:783.208   CPU_ReadMem(4 bytes @ 0xE0001038)
T3038 038:784.073   Data:  00 02 00 00
T3038 038:784.202   Debug reg: DWT_FUNC[1]
T3038 038:784.274 - 1.168ms returns 1 (0x1)
T3038 038:784.344 JLINK_ReadMemU32(0xE0001048, 0x1 Items)
T3038 038:784.421   CPU_ReadMem(4 bytes @ 0xE0001048)
T3038 038:785.148   Data:  00 00 00 00
T3038 038:785.256   Debug reg: DWT_FUNC[2]
T3038 038:785.327 - 1.012ms returns 1 (0x1)
T3038 038:785.413 JLINK_ReadMemU32(0xE0001058, 0x1 Items)
T3038 038:785.492   CPU_ReadMem(4 bytes @ 0xE0001058)
T3038 038:786.216   Data:  00 00 00 00
T3038 038:786.318   Debug reg: DWT_FUNC[3]
T3038 038:786.388 - 0.999ms returns 1 (0x1)
T3038 038:786.807 JLINK_HasError()
T3038 038:786.901 JLINK_ReadReg(R0)
T3038 038:786.964 - 0.089ms returns 0x00000500
T3038 038:787.033 JLINK_ReadReg(R1)
T3038 038:787.085 - 0.076ms returns 0x05FA0500
T3038 038:787.143 JLINK_ReadReg(R2)
T3038 038:787.193 - 0.074ms returns 0xE000ED0C
T3038 038:787.253 JLINK_ReadReg(R3)
T3038 038:787.309 - 0.081ms returns 0x28000001
T3038 038:787.366 JLINK_ReadReg(R4)
T3038 038:787.415 - 0.074ms returns 0x00000000
T3038 038:787.472 JLINK_ReadReg(R5)
T3038 038:787.522 - 0.074ms returns 0x20000510
T3038 038:787.579 JLINK_ReadReg(R6)
T3038 038:787.628 - 0.073ms returns 0x00000000
T3038 038:787.685 JLINK_ReadReg(R7)
T3038 038:787.734 - 0.073ms returns 0x00000000
T3038 038:787.790 JLINK_ReadReg(R8)
T3038 038:787.839 - 0.073ms returns 0x00000000
T3038 038:787.896 JLINK_ReadReg(R9)
T3038 038:787.945 - 0.073ms returns 0x20000160
T3038 038:788.006 JLINK_ReadReg(R10)
T3038 038:788.061 - 0.079ms returns 0x08005480
T3038 038:788.118 JLINK_ReadReg(R11)
T3038 038:788.167 - 0.072ms returns 0x00000000
T3038 038:788.223 JLINK_ReadReg(R12)
T3038 038:788.272 - 0.073ms returns 0x00000001
T3038 038:788.328 JLINK_ReadReg(R13 (SP))
T3038 038:788.378 - 0.073ms returns 0x20000B70
T3038 038:788.434 JLINK_ReadReg(R14)
T3038 038:788.482 - 0.073ms returns 0x080001E5
T3038 038:788.539 JLINK_ReadReg(R15 (PC))
T3038 038:788.588 - 0.073ms returns 0x080001E4
T3038 038:788.644 JLINK_ReadReg(XPSR)
T3038 038:788.695 - 0.075ms returns 0x01000000
T3038 038:788.753 JLINK_ReadReg(MSP)
T3038 038:788.806 - 0.077ms returns 0x20000B70
T3038 038:788.863 JLINK_ReadReg(PSP)
T3038 038:788.911 - 0.072ms returns 0x20001000
T3038 038:788.968 JLINK_ReadReg(CFBP)
T3038 038:789.020 - 0.076ms returns 0x00000000
T1620 038:790.117 JLINK_HasError()
T1620 038:790.210 JLINK_ReadMemU32(0xE0001004, 0x1 Items)
T1620 038:790.281   CPU_ReadMem(4 bytes @ 0xE0001004)
T1620 038:791.045   Data:  F5 1B 00 00
T1620 038:791.154   Debug reg: DWT_CYCCNT
T1620 038:791.223 - 1.036ms returns 1 (0x1)
T1620 038:814.505 JLINK_ReadMemEx(0x080001E4, 0x3C Bytes, Flags = 0x02000000)
T1620 038:814.763   CPU_ReadMem(128 bytes @ 0x080001C0)
T1620 038:816.814    -- Updating C cache (128 bytes @ 0x080001C0)
T1620 038:816.925    -- Read from C cache (60 bytes @ 0x080001E4)
T1620 038:817.002   Data:  00 F0 30 F9 00 F0 F6 FB 00 F0 D4 F9 4F F4 E1 30 ...
T1620 038:817.073 - 2.592ms returns 60 (0x3C)
T1620 038:817.139 JLINK_ReadMemEx(0x080001E4, 0x2 Bytes, Flags = 0x02000000)
T1620 038:817.196    -- Read from C cache (2 bytes @ 0x080001E4)
T1620 038:817.267   Data:  00 F0
T1620 038:817.342 - 0.237ms returns 2 (0x2)
T1620 038:817.414 JLINK_ReadMemEx(0x080001E6, 0x2 Bytes, Flags = 0x02000000)
T1620 038:817.467    -- Read from C cache (2 bytes @ 0x080001E6)
T1620 038:817.536   Data:  30 F9
T1620 038:817.605 - 0.215ms returns 2 (0x2)
T1620 038:817.714 JLINK_ReadMemEx(0x080001E8, 0x3C Bytes, Flags = 0x02000000)
T1620 038:817.771    -- Read from C cache (60 bytes @ 0x080001E8)
T1620 038:817.843   Data:  00 F0 F6 FB 00 F0 D4 F9 4F F4 E1 30 02 F0 CD F9 ...
T1620 038:817.915 - 0.224ms returns 60 (0x3C)
T1620 038:817.971 JLINK_ReadMemEx(0x080001E8, 0x2 Bytes, Flags = 0x02000000)
T1620 038:818.023    -- Read from C cache (2 bytes @ 0x080001E8)
T1620 038:818.092   Data:  00 F0
T1620 038:818.161 - 0.214ms returns 2 (0x2)
T1620 038:818.217 JLINK_ReadMemEx(0x080001EA, 0x2 Bytes, Flags = 0x02000000)
T1620 038:818.268    -- Read from C cache (2 bytes @ 0x080001EA)
T1620 038:818.337   Data:  F6 FB
T1620 038:818.405 - 0.212ms returns 2 (0x2)
T3038 045:015.685 JLINK_ReadMemEx(0x080001E4, 0x2 Bytes, Flags = 0x02000000)
T3038 045:015.722    -- Read from C cache (2 bytes @ 0x080001E4)
T3038 045:015.745   Data:  00 F0
T3038 045:015.768 - 0.090ms returns 2 (0x2)
T3038 045:015.787 JLINK_HasError()
T3038 045:015.807 JLINK_SetBPEx(Addr = 0x080001E8, Type = 0xFFFFFFF2)
T3038 045:015.828 - 0.029ms returns 0x00000005
T3038 045:015.846 JLINK_HasError()
T3038 045:015.863 JLINK_HasError()
T3038 045:015.880 JLINK_Go()
T3038 045:016.638   CPU_WriteMem(4 bytes @ 0xE0002000)
T3038 045:017.252   CPU_ReadMem(4 bytes @ 0xE0001000)
T3038 045:017.827   CPU_WriteMem(4 bytes @ 0xE0002008)
T3038 045:019.180 - 3.316ms
T3038 045:119.910 JLINK_HasError()
T3038 045:120.001 JLINK_IsHalted()
T3038 045:124.886 - 4.925ms returns TRUE
T3038 045:124.959 JLINK_HasError()
T3038 045:125.004 JLINK_Halt()
T3038 045:125.041 - 0.056ms returns 0x00
T3038 045:125.084 JLINK_IsHalted()
T3038 045:125.121 - 0.055ms returns TRUE
T3038 045:125.163 JLINK_IsHalted()
T3038 045:125.198 - 0.053ms returns TRUE
T3038 045:125.239 JLINK_IsHalted()
T3038 045:125.275 - 0.053ms returns TRUE
T3038 045:125.317 JLINK_HasError()
T3038 045:125.360 JLINK_ReadReg(R15 (PC))
T3038 045:125.404 - 0.062ms returns 0x080001E8
T3038 045:125.447 JLINK_ReadReg(XPSR)
T3038 045:125.484 - 0.055ms returns 0x01000000
T3038 045:125.532 JLINK_HasError()
T3038 045:125.574 JLINK_ClrBPEx(BPHandle = 0x00000005)
T3038 045:125.612 - 0.056ms returns 0x00
T3038 045:125.654 JLINK_HasError()
T3038 045:125.695 JLINK_HasError()
T3038 045:125.737 JLINK_ReadMemU32(0xE000ED30, 0x1 Items)
T3038 045:125.793   CPU_ReadMem(4 bytes @ 0xE000ED30)
T3038 045:126.472   Data:  02 00 00 00
T3038 045:126.551 - 0.833ms returns 1 (0x1)
T3038 045:126.609 JLINK_ReadMemU32(0xE0001028, 0x1 Items)
T3038 045:126.663   CPU_ReadMem(4 bytes @ 0xE0001028)
T3038 045:127.364   Data:  00 00 00 00
T3038 045:127.442   Debug reg: DWT_FUNC[0]
T3038 045:127.494 - 0.904ms returns 1 (0x1)
T3038 045:127.550 JLINK_ReadMemU32(0xE0001038, 0x1 Items)
T3038 045:127.603   CPU_ReadMem(4 bytes @ 0xE0001038)
T3038 045:128.268   Data:  00 02 00 00
T3038 045:128.345   Debug reg: DWT_FUNC[1]
T3038 045:128.398 - 0.866ms returns 1 (0x1)
T3038 045:128.455 JLINK_ReadMemU32(0xE0001048, 0x1 Items)
T3038 045:128.508   CPU_ReadMem(4 bytes @ 0xE0001048)
T3038 045:129.187   Data:  00 00 00 00
T3038 045:129.265   Debug reg: DWT_FUNC[2]
T3038 045:129.317 - 0.882ms returns 1 (0x1)
T3038 045:129.375 JLINK_ReadMemU32(0xE0001058, 0x1 Items)
T3038 045:129.429   CPU_ReadMem(4 bytes @ 0xE0001058)
T3038 045:130.211   Data:  00 00 00 00
T3038 045:130.289   Debug reg: DWT_FUNC[3]
T3038 045:130.344 - 0.987ms returns 1 (0x1)
T3038 045:130.688 JLINK_HasError()
T3038 045:130.760 JLINK_ReadReg(R0)
T3038 045:130.810 - 0.081ms returns 0x40011800
T3038 045:130.895 JLINK_ReadReg(R1)
T3038 045:130.949 - 0.071ms returns 0x00000020
T3038 045:130.992 JLINK_ReadReg(R2)
T3038 045:131.028 - 0.053ms returns 0x40011800
T3038 045:131.068 JLINK_ReadReg(R3)
T3038 045:131.102 - 0.051ms returns 0x10030020
T3038 045:131.143 JLINK_ReadReg(R4)
T3038 045:131.177 - 0.051ms returns 0x00000000
T3038 045:131.217 JLINK_ReadReg(R5)
T3038 045:131.252 - 0.051ms returns 0x20000510
T3038 045:131.291 JLINK_ReadReg(R6)
T3038 045:131.326 - 0.051ms returns 0x00000000
T3038 045:131.366 JLINK_ReadReg(R7)
T3038 045:131.400 - 0.051ms returns 0x00000000
T3038 045:131.440 JLINK_ReadReg(R8)
T3038 045:131.474 - 0.051ms returns 0x00000000
T3038 045:131.514 JLINK_ReadReg(R9)
T3038 045:131.549 - 0.051ms returns 0x20000160
T3038 045:131.588 JLINK_ReadReg(R10)
T3038 045:131.623 - 0.051ms returns 0x08005480
T3038 045:131.663 JLINK_ReadReg(R11)
T3038 045:131.697 - 0.051ms returns 0x00000000
T3038 045:131.737 JLINK_ReadReg(R12)
T3038 045:131.772 - 0.057ms returns 0x00000020
T3038 045:131.817 JLINK_ReadReg(R13 (SP))
T3038 045:131.853 - 0.053ms returns 0x20000B70
T3038 045:131.894 JLINK_ReadReg(R14)
T3038 045:131.928 - 0.051ms returns 0x08000485
T3038 045:131.968 JLINK_ReadReg(R15 (PC))
T3038 045:132.003 - 0.051ms returns 0x080001E8
T3038 045:132.043 JLINK_ReadReg(XPSR)
T3038 045:132.077 - 0.051ms returns 0x01000000
T3038 045:132.117 JLINK_ReadReg(MSP)
T3038 045:132.151 - 0.051ms returns 0x20000B70
T3038 045:132.191 JLINK_ReadReg(PSP)
T3038 045:132.226 - 0.051ms returns 0x20001000
T3038 045:132.265 JLINK_ReadReg(CFBP)
T3038 045:132.301 - 0.052ms returns 0x00000000
T1620 045:133.139 JLINK_HasError()
T1620 045:133.210 JLINK_ReadMemU32(0xE0001004, 0x1 Items)
T1620 045:133.263   CPU_ReadMem(4 bytes @ 0xE0001004)
T1620 045:133.930   Data:  57 1E 00 00
T1620 045:134.008   Debug reg: DWT_CYCCNT
T1620 045:134.059 - 0.867ms returns 1 (0x1)
T1620 045:152.869 JLINK_ReadMemEx(0x080001E4, 0x3C Bytes, Flags = 0x02000000)
T1620 045:152.960   CPU_ReadMem(128 bytes @ 0x080001C0)
T1620 045:154.926    -- Updating C cache (128 bytes @ 0x080001C0)
T1620 045:155.026    -- Read from C cache (60 bytes @ 0x080001E4)
T1620 045:155.083   Data:  00 F0 30 F9 00 F0 F6 FB 00 F0 D4 F9 4F F4 E1 30 ...
T1620 045:155.135 - 2.284ms returns 60 (0x3C)
T1620 045:155.194 JLINK_ReadMemEx(0x080001E4, 0x2 Bytes, Flags = 0x02000000)
T1620 045:155.237    -- Read from C cache (2 bytes @ 0x080001E4)
T1620 045:155.288   Data:  00 F0
T1620 045:155.339 - 0.162ms returns 2 (0x2)
T1620 045:155.387 JLINK_ReadMemEx(0x080001E6, 0x2 Bytes, Flags = 0x02000000)
T1620 045:155.426    -- Read from C cache (2 bytes @ 0x080001E6)
T1620 045:155.477   Data:  30 F9
T1620 045:155.526 - 0.155ms returns 2 (0x2)
T1620 045:155.621 JLINK_ReadMemEx(0x080001E8, 0x3C Bytes, Flags = 0x02000000)
T1620 045:155.663    -- Read from C cache (60 bytes @ 0x080001E8)
T1620 045:155.715   Data:  00 F0 F6 FB 00 F0 D4 F9 4F F4 E1 30 02 F0 CD F9 ...
T1620 045:155.769 - 0.165ms returns 60 (0x3C)
T1620 045:155.815 JLINK_ReadMemEx(0x080001E8, 0x2 Bytes, Flags = 0x02000000)
T1620 045:155.853    -- Read from C cache (2 bytes @ 0x080001E8)
T1620 045:155.901   Data:  00 F0
T1620 045:155.950 - 0.152ms returns 2 (0x2)
T1620 045:155.994 JLINK_ReadMemEx(0x080001EA, 0x2 Bytes, Flags = 0x02000000)
T1620 045:156.030    -- Read from C cache (2 bytes @ 0x080001EA)
T1620 045:156.079   Data:  F6 FB
T1620 045:156.128 - 0.150ms returns 2 (0x2)
T3038 045:898.065 JLINK_ReadMemEx(0x080001E8, 0x2 Bytes, Flags = 0x02000000)
T3038 045:898.102    -- Read from C cache (2 bytes @ 0x080001E8)
T3038 045:898.123   Data:  00 F0
T3038 045:898.143 - 0.084ms returns 2 (0x2)
T3038 045:898.160 JLINK_HasError()
T3038 045:898.178 JLINK_SetBPEx(Addr = 0x080001EC, Type = 0xFFFFFFF2)
T3038 045:898.239 - 0.070ms returns 0x00000006
T3038 045:898.279 JLINK_HasError()
T3038 045:898.315 JLINK_HasError()
T3038 045:898.353 JLINK_Go()
T3038 045:899.008   CPU_WriteMem(4 bytes @ 0xE0002000)
T3038 045:899.627   CPU_ReadMem(4 bytes @ 0xE0001000)
T3038 045:900.175   CPU_WriteMem(4 bytes @ 0xE0002008)
T3038 045:901.493 - 3.154ms
T3038 046:002.709 JLINK_HasError()
T3038 046:002.751 JLINK_IsHalted()
T3038 046:003.533 - 0.811ms returns FALSE
T3038 046:104.394 JLINK_HasError()
T3038 046:104.509 JLINK_IsHalted()
T3038 046:109.705 - 5.281ms returns TRUE
T3038 046:109.845 JLINK_HasError()
T3038 046:109.907 JLINK_Halt()
T3038 046:109.956 - 0.073ms returns 0x00
T3038 046:110.018 JLINK_IsHalted()
T3038 046:110.066 - 0.071ms returns TRUE
T3038 046:110.127 JLINK_IsHalted()
